Freq.	(V(v)/(-V(I)))*1000
1.00000000000000e+01	(6.00085974079756e+01dB,4.39870047841900e-04°)
1.02329299228075e+01	(6.00085974080068e+01dB,4.50115935852583e-04°)
1.04712854805090e+01	(6.00085974080391e+01dB,4.60600481461498e-04°)
1.07151930523761e+01	(6.00085974080733e+01dB,4.71329243372693e-04°)
1.09647819614318e+01	(6.00085974081090e+01dB,4.82307910569953e-04°)
1.12201845430196e+01	(6.00085974081462e+01dB,4.93542301201443e-04°)
1.14815362149688e+01	(6.00085974081857e+01dB,5.05038374706718e-04°)
1.17489755493953e+01	(6.00085974082268e+01dB,5.16802230025483e-04°)
1.20226443461741e+01	(6.00085974082693e+01dB,5.28840094180007e-04°)
1.23026877081238e+01	(6.00085974083140e+01dB,5.41158359881547e-04°)
1.25892541179417e+01	(6.00085974083610e+01dB,5.53763555418601e-04°)
1.28824955169313e+01	(6.00085974084105e+01dB,5.66662365774535e-04°)
1.31825673855641e+01	(6.00085974084620e+01dB,5.79861625484174e-04°)
1.34896288259165e+01	(6.00085974085158e+01dB,5.93368336190139e-04°)
1.38038426460288e+01	(6.00085974085723e+01dB,6.07189660036961e-04°)
1.41253754462275e+01	(6.00085974086318e+01dB,6.21332919569095e-04°)
1.44543977074593e+01	(6.00085974086934e+01dB,6.35805621563551e-04°)
1.47910838816821e+01	(6.00085974087583e+01dB,6.50615435873218e-04°)
1.51356124843621e+01	(6.00085974088267e+01dB,6.65770211522825e-04°)
1.54881661891248e+01	(6.00085974088975e+01dB,6.81277991543259e-04°)
1.58489319246111e+01	(6.00085974089716e+01dB,6.97146991773268e-04°)
1.62181009735893e+01	(6.00085974090496e+01dB,7.13385628505917e-04°)
1.65958690743756e+01	(6.00085974091310e+01dB,7.30002512816716e-04°)
1.69824365246174e+01	(6.00085974092162e+01dB,7.47006454841148e-04°)
1.73780082874937e+01	(6.00085974093060e+01dB,7.64406472238721e-04°)
1.77827941003892e+01	(6.00085974093998e+01dB,7.82211783221494e-04°)
1.81970085860998e+01	(6.00085974094976e+01dB,8.00431833234770e-04°)
1.86208713666287e+01	(6.00085974096003e+01dB,8.19076283202494e-04°)
1.90546071796325e+01	(6.00085974097081e+01dB,8.38155019708536e-04°)
1.94984459975804e+01	(6.00085974098207e+01dB,8.57678155712923e-04°)
1.99526231496888e+01	(6.00085974099382e+01dB,8.77656046946202e-04°)
2.04173794466953e+01	(6.00085974100618e+01dB,8.98099279005853e-04°)
2.08929613085404e+01	(6.00085974101914e+01dB,9.19018699115829e-04°)
2.13796208950223e+01	(6.00085974103264e+01dB,9.40425393020778e-04°)
2.18776162394955e+01	(6.00085974104685e+01dB,9.62330715020565e-04°)
2.23872113856834e+01	(6.00085974106165e+01dB,9.84746273164053e-04°)
2.29086765276777e+01	(6.00085974107716e+01dB,1.00768395696536e-03°)
2.34422881531992e+01	(6.00085974109347e+01dB,1.03115593317212e-03°)
2.39883291901949e+01	(6.00085974111054e+01dB,1.05517464027264e-03°)
2.45470891568503e+01	(6.00085974112835e+01dB,1.07975281198426e-03°)
2.51188643150958e+01	(6.00085974114704e+01dB,1.10490348484946e-03°)
2.57039578276886e+01	(6.00085974116660e+01dB,1.13063999140888e-03°)
2.63026799189538e+01	(6.00085974118710e+01dB,1.15697597929231e-03°)
2.69153480392691e+01	(6.00085974120857e+01dB,1.18392541095536e-03°)
2.75422870333816e+01	(6.00085974123103e+01dB,1.21150257788881e-03°)
2.81838293126445e+01	(6.00085974125453e+01dB,1.23972209522448e-03°)
2.88403150312660e+01	(6.00085974127916e+01dB,1.26859893141126e-03°)
2.95120922666638e+01	(6.00085974130497e+01dB,1.29814839354207e-03°)
3.01995172040201e+01	(6.00085974133196e+01dB,1.32838615283006e-03°)
3.09029543251359e+01	(6.00085974136023e+01dB,1.35932823991616e-03°)
3.16227766016837e+01	(6.00085974138984e+01dB,1.39099106277353e-03°)
3.23593656929628e+01	(6.00085974142086e+01dB,1.42339140458256e-03°)
3.31131121482591e+01	(6.00085974145336e+01dB,1.45654644879262e-03°)
3.38844156139202e+01	(6.00085974148734e+01dB,1.49047377437013e-03°)
3.46736850452531e+01	(6.00085974152297e+01dB,1.52519136641189e-03°)
3.54813389233575e+01	(6.00085974156022e+01dB,1.56071763503419e-03°)
3.63078054770101e+01	(6.00085974159928e+01dB,1.59707141847388e-03°)
3.71535229097172e+01	(6.00085974164011e+01dB,1.63427199090101e-03°)
3.80189396320561e+01	(6.00085974168288e+01dB,1.67233907629236e-03°)
3.89045144994280e+01	(6.00085974172773e+01dB,1.71129285604240e-03°)
3.98107170553496e+01	(6.00085974177470e+01dB,1.75115398563960e-03°)
4.07380277804112e+01	(6.00085974182378e+01dB,1.79194360052466e-03°)
4.16869383470335e+01	(6.00085974187527e+01dB,1.83368332782374e-03°)
4.26579518801592e+01	(6.00085974192910e+01dB,1.87639529787130e-03°)
4.36515832240165e+01	(6.00085974198558e+01dB,1.92010216053917e-03°)
4.46683592150962e+01	(6.00085974204468e+01dB,1.96482708385425e-03°)
4.57088189614874e+01	(6.00085974210649e+01dB,2.01059378374527e-03°)
4.67735141287197e+01	(6.00085974217132e+01dB,2.05742653069772e-03°)
4.78630092322637e+01	(6.00085974223911e+01dB,2.10535014582734e-03°)
4.89778819368445e+01	(6.00085974231017e+01dB,2.15439005334584e-03°)
5.01187233627271e+01	(6.00085974238451e+01dB,2.20457224368623e-03°)
5.12861383991364e+01	(6.00085974246240e+01dB,2.25592332649215e-03°)
5.24807460249771e+01	(6.00085974254393e+01dB,2.30847052784260e-03°)
5.37031796370252e+01	(6.00085974262938e+01dB,2.36224171274519e-03°)
5.49540873857623e+01	(6.00085974271878e+01dB,2.41726538931600e-03°)
5.62341325190348e+01	(6.00085974281240e+01dB,2.47357073409793e-03°)
5.75439937337156e+01	(6.00085974291049e+01dB,2.53118759691255e-03°)
5.88843655355588e+01	(6.00085974301315e+01dB,2.59014653061796e-03°)
6.02559586074356e+01	(6.00085974312063e+01dB,2.65047879201018e-03°)
6.16595001861481e+01	(6.00085974323318e+01dB,2.71221637269441e-03°)
6.30957344480192e+01	(6.00085974335110e+01dB,2.77539200651658e-03°)
6.45654229034654e+01	(6.00085974347453e+01dB,2.84003919056658e-03°)
6.60693448007594e+01	(6.00085974360382e+01dB,2.90619220003486e-03°)
6.76082975391980e+01	(6.00085974373910e+01dB,2.97388611151279e-03°)
6.91830970918935e+01	(6.00085974388082e+01dB,3.04315681631345e-03°)
7.07945784384136e+01	(6.00085974402925e+01dB,3.11404104387837e-03°)
7.24435960074988e+01	(6.00085974418466e+01dB,3.18657637524910e-03°)
7.41310241300915e+01	(6.00085974434738e+01dB,3.26080127337538e-03°)
7.58577575029182e+01	(6.00085974451779e+01dB,3.33675509073993e-03°)
7.76247116628690e+01	(6.00085974469620e+01dB,3.41447809911618e-03°)
7.94328234724279e+01	(6.00085974488305e+01dB,3.49401150961373e-03°)
8.12830516164097e+01	(6.00085974507868e+01dB,3.57539749096476e-03°)
8.31763771102669e+01	(6.00085974528349e+01dB,3.65867919600325e-03°)
8.51138038202374e+01	(6.00085974549802e+01dB,3.74390078003380e-03°)
8.70963589956078e+01	(6.00085974572265e+01dB,3.83110742931046e-03°)
8.91250938133743e+01	(6.00085974595778e+01dB,3.92034538407046e-03°)
9.12010839355907e+01	(6.00085974620408e+01dB,4.01166195500351e-03°)
9.33254300796988e+01	(6.00085974646203e+01dB,4.10510556450914e-03°)
9.54992586021433e+01	(6.00085974673209e+01dB,4.20072575453424e-03°)
9.77237220955808e+01	(6.00085974701487e+01dB,4.29857322425389e-03°)
9.99999999999997e+01	(6.00085974731094e+01dB,4.39869985410950e-03°)
1.02329299228075e+02	(6.00085974762099e+01dB,4.50115873285937e-03°)
1.04712854805090e+02	(6.00085974794564e+01dB,4.60600418464819e-03°)
1.07151930523760e+02	(6.00085974828560e+01dB,4.71329180264212e-03°)
1.09647819614318e+02	(6.00085974864165e+01dB,4.82307846790087e-03°)
1.12201845430196e+02	(6.00085974901440e+01dB,4.93542239328183e-03°)
1.14815362149688e+02	(6.00085974940474e+01dB,5.05038314490484e-03°)
1.17489755493953e+02	(6.00085974981344e+01dB,5.16802167697283e-03°)
1.20226443461741e+02	(6.00085975024149e+01dB,5.28840036067097e-03°)
1.23026877081238e+02	(6.00085975068961e+01dB,5.41158302331816e-03°)
1.25892541179416e+02	(6.00085975115897e+01dB,5.53763498074098e-03°)
1.28824955169313e+02	(6.00085975165030e+01dB,5.66662306317299e-03°)
1.31825673855640e+02	(6.00085975216487e+01dB,5.79861566442522e-03°)
1.34896288259165e+02	(6.00085975270367e+01dB,5.93368276831125e-03°)
1.38038426460288e+02	(6.00085975326789e+01dB,6.07189598819792e-03°)
1.41253754462275e+02	(6.00085975385872e+01dB,6.21332860693203e-03°)
1.44543977074592e+02	(6.00085975447736e+01dB,6.35805561453161e-03°)
1.47910838816820e+02	(6.00085975512517e+01dB,6.50615374667247e-03°)
1.51356124843620e+02	(6.00085975580350e+01dB,6.65770152629632e-03°)
1.54881661891248e+02	(6.00085975651375e+01dB,6.81277930652677e-03°)
1.58489319246111e+02	(6.00085975725759e+01dB,6.97146931206262e-03°)
1.62181009735892e+02	(6.00085975803642e+01dB,7.13385568188537e-03°)
1.65958690743755e+02	(6.00085975885196e+01dB,7.30002451551042e-03°)
1.69824365246174e+02	(6.00085975970594e+01dB,7.47006391719373e-03°)
1.73780082874937e+02	(6.00085976060011e+01dB,7.64406404492740e-03°)
1.77827941003892e+02	(6.00085976153647e+01dB,7.82211715510896e-03°)
1.81970085860998e+02	(6.00085976251697e+01dB,8.00431765405281e-03°)
1.86208713666286e+02	(6.00085976354366e+01dB,8.19076214599142e-03°)
1.90546071796324e+02	(6.00085976461875e+01dB,8.38154948832605e-03°)
1.94984459975804e+02	(6.00085976574444e+01dB,8.57678083623271e-03°)
1.99526231496887e+02	(6.00085976692327e+01dB,8.77655970576677e-03°)
2.04173794466952e+02	(6.00085976815764e+01dB,8.98099202093018e-03°)
2.08929613085403e+02	(6.00085976945016e+01dB,9.19018617530556e-03°)
2.13796208950222e+02	(6.00085977080363e+01dB,9.40425308576123e-03°)
2.18776162394954e+02	(6.00085977222081e+01dB,9.62330625315242e-03°)
2.23872113856833e+02	(6.00085977370489e+01dB,9.84746182294853e-03°)
2.29086765276776e+02	(6.00085977525883e+01dB,1.00768386443473e-02°)
2.34422881531991e+02	(6.00085977688606e+01dB,1.03115583357563e-02°)
2.39883291901948e+02	(6.00085977858992e+01dB,1.05517453491865e-02°)
2.45470891568502e+02	(6.00085978037412e+01dB,1.07975270339359e-02°)
2.51188643150957e+02	(6.00085978224240e+01dB,1.10490337067462e-02°)
2.57039578276885e+02	(6.00085978419873e+01dB,1.13063987194535e-02°)
2.63026799189537e+02	(6.00085978624726e+01dB,1.15697585313407e-02°)
2.69153480392690e+02	(6.00085978839236e+01dB,1.18392527774080e-02°)
2.75422870333815e+02	(6.00085979063854e+01dB,1.21150243475576e-02°)
2.81838293126444e+02	(6.00085979299049e+01dB,1.23972194582729e-02°)
2.88403150312659e+02	(6.00085979545336e+01dB,1.26859877339430e-02°)
2.95120922666637e+02	(6.00085979803232e+01dB,1.29814822819515e-02°)
3.01995172040200e+02	(6.00085980073280e+01dB,1.32838597776809e-02°)
3.09029543251358e+02	(6.00085980356056e+01dB,1.35932805454559e-02°)
3.16227766016836e+02	(6.00085980652154e+01dB,1.39099086427543e-02°)
3.23593656929627e+02	(6.00085980962211e+01dB,1.42339119504868e-02°)
3.31131121482589e+02	(6.00085981286885e+01dB,1.45654622584590e-02°)
3.38844156139201e+02	(6.00085981626853e+01dB,1.49047353585662e-02°)
3.46736850452530e+02	(6.00085981982847e+01dB,1.52519111373191e-02°)
3.54813389233574e+02	(6.00085982355620e+01dB,1.56071736710017e-02°)
3.63078054770100e+02	(6.00085982745952e+01dB,1.59707113238486e-02°)
3.71535229097171e+02	(6.00085983154690e+01dB,1.63427168479394e-02°)
3.80189396320559e+02	(6.00085983582685e+01dB,1.67233874839230e-02°)
3.89045144994279e+02	(6.00085984030855e+01dB,1.71129250685888e-02°)
3.98107170553495e+02	(6.00085984500144e+01dB,1.75115361384429e-02°)
4.07380277804111e+02	(6.00085984991552e+01dB,1.79194320403439e-02°)
4.16869383470333e+02	(6.00085985506124e+01dB,1.83368290470077e-02°)
4.26579518801590e+02	(6.00085986044937e+01dB,1.87639484652423e-02°)
4.36515832240164e+02	(6.00085986609144e+01dB,1.92010167586187e-02°)
4.46683592150961e+02	(6.00085987199943e+01dB,1.96482656652637e-02°)
4.57088189614873e+02	(6.00085987818592e+01dB,2.01059323205763e-02°)
4.67735141287196e+02	(6.00085988466396e+01dB,2.05742593846060e-02°)
4.78630092322636e+02	(6.00085989144717e+01dB,2.10534951679657e-02°)
4.89778819368444e+02	(6.00085989855023e+01dB,2.15438937668420e-02°)
5.01187233627270e+02	(6.00085990598791e+01dB,2.20457151952981e-02°)
5.12861383991362e+02	(6.00085991377620e+01dB,2.25592255225385e-02°)
5.24807460249770e+02	(6.00085992193158e+01dB,2.30846970181566e-02°)
5.37031796370250e+02	(6.00085993047118e+01dB,2.36224082902104e-02°)
5.49540873857622e+02	(6.00085993941332e+01dB,2.41726444383916e-02°)
5.62341325190346e+02	(6.00085994877689e+01dB,2.47356972022346e-02°)
5.75439937337154e+02	(6.00085995858168e+01dB,2.53118651175351e-02°)
5.88843655355586e+02	(6.00085996884867e+01dB,2.59014536723420e-02°)
6.02559586074354e+02	(6.00085997959949e+01dB,2.65047754715989e-02°)
6.16595001861479e+02	(6.00085999085691e+01dB,2.71221504006032e-02°)
6.30957344480190e+02	(6.00086000264496e+01dB,2.77539057965096e-02°)
6.45654229034652e+02	(6.00086001498851e+01dB,2.84003766190804e-02°)
6.60693448007592e+02	(6.00086002791381e+01dB,2.90619056322567e-02°)
6.76082975391978e+02	(6.00086004144824e+01dB,2.97388435831681e-02°)
6.91830970918933e+02	(6.00086005562053e+01dB,3.04315493878535e-02°)
7.07945784384134e+02	(6.00086007046083e+01dB,3.11403903225550e-02°)
7.24435960074986e+02	(6.00086008600044e+01dB,3.18657422183480e-02°)
7.41310241300913e+02	(6.00086010227238e+01dB,3.26079896612324e-02°)
7.58577575029179e+02	(6.00086011931133e+01dB,3.33675261926643e-02°)
7.76247116628687e+02	(6.00086013715313e+01dB,3.41447545228440e-02°)
7.94328234724277e+02	(6.00086015583584e+01dB,3.49400867401566e-02°)
8.12830516164094e+02	(6.00086017539911e+01dB,3.57539445332768e-02°)
8.31763771102666e+02	(6.00086019588429e+01dB,3.65867594113224e-02°)
8.51138038202371e+02	(6.00086021733495e+01dB,3.74389729337261e-02°)
8.70963589956075e+02	(6.00086023979654e+01dB,3.83110369467575e-02°)
8.91250938133740e+02	(6.00086026331668e+01dB,3.92034138184284e-02°)
9.12010839355904e+02	(6.00086028794533e+01dB,4.01165766877497e-02°)
9.33254300796985e+02	(6.00086031373461e+01dB,4.10510097137432e-02°)
9.54992586021430e+02	(6.00086034073940e+01dB,4.20072083316974e-02°)
9.77237220955805e+02	(6.00086036901678e+01dB,4.29856795170415e-02°)
9.99999999999994e+02	(6.00086039862688e+01dB,4.39869420529739e-02°)
1.02329299228075e+03	(6.00086042963250e+01dB,4.50115268056606e-02°)
1.04712854805089e+03	(6.00086046209930e+01dB,4.60599770068664e-02°)
1.07151930523760e+03	(6.00086049609624e+01dB,4.71328485395562e-02°)
1.09647819614318e+03	(6.00086053169542e+01dB,4.82307102350567e-02°)
1.12201845430196e+03	(6.00086056897229e+01dB,4.93541441724674e-02°)
1.14815362149688e+03	(6.00086060800593e+01dB,5.05037459891782e-02°)
1.17489755493952e+03	(6.00086064887921e+01dB,5.16801251941409e-02°)
1.20226443461741e+03	(6.00086069167878e+01dB,5.28839054932727e-02°)
1.23026877081237e+03	(6.00086073649543e+01dB,5.41157251189520e-02°)
1.25892541179416e+03	(6.00086078342419e+01dB,5.53762371681233e-02°)
1.28824955169313e+03	(6.00086083256459e+01dB,5.66661099483233e-02°)
1.31825673855640e+03	(6.00086088402094e+01dB,5.79860273328403e-02°)
1.34896288259164e+03	(6.00086093790224e+01dB,5.93366891225849e-02°)
1.38038426460288e+03	(6.00086099432304e+01dB,6.07188114164961e-02°)
1.41253754462274e+03	(6.00086105340274e+01dB,6.21331269926425e-02°)
1.44543977074592e+03	(6.00086111526678e+01dB,6.35803856928384e-02°)
1.47910838816820e+03	(6.00086118004637e+01dB,6.50613548244526e-02°)
1.51356124843620e+03	(6.00086124787890e+01dB,6.65768195655190e-02°)
1.54881661891247e+03	(6.00086131890825e+01dB,6.81275833788888e-02°)
1.58489319246110e+03	(6.00086139328512e+01dB,6.97144684398169e-02°)
1.62181009735892e+03	(6.00086147116720e+01dB,7.13383160720400e-02°)
1.65958690743755e+03	(6.00086155271973e+01dB,7.29999871917464e-02°)
1.69824365246173e+03	(6.00086163811564e+01dB,7.47003627656743e-02°)
1.73780082874936e+03	(6.00086172753613e+01dB,7.64403442757208e-02°)
1.77827941003891e+03	(6.00086182117081e+01dB,7.82208541988414e-02°)
1.81970085860997e+03	(6.00086191921839e+01dB,8.00428364947605e-02°)
1.86208713666285e+03	(6.00086202188660e+01dB,8.19072571049291e-02°)
1.90546071796323e+03	(6.00086212939351e+01dB,8.38151044646942e-02°)
1.94984459975803e+03	(6.00086224196691e+01dB,8.57673900285005e-02°)
1.99526231496887e+03	(6.00086235984570e+01dB,8.77651488056806e-02°)
2.04173794466951e+03	(6.00086248327980e+01dB,8.98094399050277e-02°)
2.08929613085402e+03	(6.00086261253119e+01dB,9.19013470999301e-02°)
2.13796208950222e+03	(6.00086274787387e+01dB,9.40419793991814e-02°)
2.18776162394954e+03	(6.00086288959492e+01dB,9.62324716378941e-02°)
2.23872113856832e+03	(6.00086303799506e+01dB,9.84739850735781e-02°)
2.29086765276776e+03	(6.00086319338883e+01dB,1.00767708006395e-01°)
2.34422881531990e+03	(6.00086335610607e+01dB,1.03114856404011e-01°)
2.39883291901947e+03	(6.00086352649171e+01dB,1.05516674546988e-01°)
2.45470891568501e+03	(6.00086370490724e+01dB,1.07974435689614e-01°)
2.51188643150956e+03	(6.00086389173110e+01dB,1.10489442729523e-01°)
2.57039578276884e+03	(6.00086408735942e+01dB,1.13063028901945e-01°)
2.63026799189536e+03	(6.00086429220728e+01dB,1.15696558480181e-01°)
2.69153480392690e+03	(6.00086450670909e+01dB,1.18391427505052e-01°)
2.75422870333815e+03	(6.00086473131981e+01dB,1.21149064515860e-01°)
2.81838293126443e+03	(6.00086496651576e+01dB,1.23970931310972e-01°)
2.88403150312658e+03	(6.00086521279590e+01dB,1.26858523721074e-01°)
2.95120922666636e+03	(6.00086547068249e+01dB,1.29813372397496e-01°)
3.01995172040199e+03	(6.00086574072261e+01dB,1.32837043625494e-01°)
3.09029543251357e+03	(6.00086602348885e+01dB,1.35931140150423e-01°)
3.16227766016835e+03	(6.00086631958107e+01dB,1.39097302028790e-01°)
3.23593656929626e+03	(6.00086662962719e+01dB,1.42337207489185e-01°)
3.31131121482588e+03	(6.00086695428481e+01dB,1.45652573825737e-01°)
3.38844156139200e+03	(6.00086729424246e+01dB,1.49045158304159e-01°)
3.46736850452529e+03	(6.00086765022117e+01dB,1.52516759089378e-01°)
3.54813389233573e+03	(6.00086802297593e+01dB,1.56069216196705e-01°)
3.63078054770098e+03	(6.00086841329734e+01dB,1.59704412465850e-01°)
3.71535229097170e+03	(6.00086882201320e+01dB,1.63424274551489e-01°)
3.80189396320558e+03	(6.00086924999038e+01dB,1.67230773947801e-01°)
3.89045144994277e+03	(6.00086969813645e+01dB,1.71125928023428e-01°)
3.98107170553494e+03	(6.00087016740184e+01dB,1.75111801089985e-01°)
4.07380277804109e+03	(6.00087065878177e+01dB,1.79190505491711e-01°)
4.16869383470332e+03	(6.00087117331852e+01dB,1.83364202720783e-01°)
4.26579518801589e+03	(6.00087171210308e+01dB,1.87635104556805e-01°)
4.36515832240162e+03	(6.00087227627819e+01dB,1.92005474236398e-01°)
4.46683592150959e+03	(6.00087286704034e+01dB,1.96477627643854e-01°)
4.57088189614871e+03	(6.00087348564231e+01dB,2.01053934535429e-01°)
4.67735141287194e+03	(6.00087413339595e+01dB,2.05736819789186e-01°)
4.78630092322634e+03	(6.00087481167497e+01dB,2.10528764680503e-01°)
4.89778819368442e+03	(6.00087552191779e+01dB,2.15432308192419e-01°)
5.01187233627268e+03	(6.00087626563048e+01dB,2.20450048353340e-01°)
5.12861383991361e+03	(6.00087704439031e+01dB,2.25584643601604e-01°)
5.24807460249768e+03	(6.00087785984849e+01dB,2.30838814190027e-01°)
5.37031796370248e+03	(6.00087871373445e+01dB,2.36215343617727e-01°)
5.49540873857620e+03	(6.00087960785875e+01dB,2.41717080092162e-01°)
5.62341325190344e+03	(6.00088054411745e+01dB,2.47346938026598e-01°)
5.75439937337152e+03	(6.00088152449581e+01dB,2.53107899579462e-01°)
5.88843655355584e+03	(6.00088255107257e+01dB,2.59003016210637e-01°)
6.02559586074353e+03	(6.00088362602476e+01dB,2.65035410294593e-01°)
6.16595001861477e+03	(6.00088475163142e+01dB,2.71208276760203e-01°)
6.30957344480188e+03	(6.00088593027926e+01dB,2.77524884751370e-01°)
6.45654229034650e+03	(6.00088716446743e+01dB,2.83988579367031e-01°)
6.60693448007590e+03	(6.00088845681269e+01dB,2.90602783399308e-01°)
6.76082975391976e+03	(6.00088981005510e+01dB,2.97370999132836e-01°)
6.91830970918930e+03	(6.00089122706379e+01dB,3.04296810177950e-01°)
7.07945784384132e+03	(6.00089271084285e+01dB,3.11383883348586e-01°)
7.24435960074984e+03	(6.00089426453815e+01dB,3.18635970577964e-01°)
7.41310241300911e+03	(6.00089589144349e+01dB,3.26056910884590e-01°)
7.58577575029177e+03	(6.00089759500800e+01dB,3.33650632377336e-01°)
