Freq.	((V(v))/(-V(i)))*1000
1.00000000000000e+02	(5.71965425361402e+01dB,-8.99938262275643e+01°)
1.02329299228075e+02	(5.69965425390684e+01dB,-8.99936824255091e+01°)
1.04712854805090e+02	(5.67965425420600e+01dB,-8.99935352643219e+01°)
1.07151930523761e+02	(5.65965425448808e+01dB,-8.99933847006890e+01°)
1.09647819614318e+02	(5.63965425480294e+01dB,-8.99932305864831e+01°)
1.12201845430196e+02	(5.61965425528789e+01dB,-8.99930729237232e+01°)
1.14815362149688e+02	(5.59965425568694e+01dB,-8.99929115599967e+01°)
1.17489755493953e+02	(5.57965425595503e+01dB,-8.99927464742820e+01°)
1.20226443461741e+02	(5.55965425634117e+01dB,-8.99925774877603e+01°)
1.23026877081238e+02	(5.53965425676574e+01dB,-8.99924046101371e+01°)
1.25892541179417e+02	(5.51965425722292e+01dB,-8.99922276812902e+01°)
1.28824955169313e+02	(5.49965425758320e+01dB,-8.99920466433043e+01°)
1.31825673855641e+02	(5.47965425811350e+01dB,-8.99918613833695e+01°)
1.34896288259165e+02	(5.45965425865498e+01dB,-8.99916718140397e+01°)
1.38038426460288e+02	(5.43965425916187e+01dB,-8.99914778514480e+01°)
1.41253754462275e+02	(5.41965425963928e+01dB,-8.99912793212633e+01°)
1.44543977074593e+02	(5.39965426020357e+01dB,-8.99910761855440e+01°)
1.47910838816821e+02	(5.37965426079597e+01dB,-8.99908683095663e+01°)
1.51356124843621e+02	(5.35965426146318e+01dB,-8.99906556164489e+01°)
1.54881661891248e+02	(5.33965426217149e+01dB,-8.99904379580389e+01°)
1.58489319246111e+02	(5.31965426282726e+01dB,-8.99902152170679e+01°)
1.62181009735893e+02	(5.29965426348605e+01dB,-8.99899873191113e+01°)
1.65958690743756e+02	(5.27965426435204e+01dB,-8.99897541244058e+01°)
1.69824365246174e+02	(5.25965426518357e+01dB,-8.99895154319673e+01°)
1.73780082874937e+02	(5.23965426588200e+01dB,-8.99892712223003e+01°)
1.77827941003892e+02	(5.21965426673477e+01dB,-8.99890213334167e+01°)
1.81970085860998e+02	(5.19965426767836e+01dB,-8.99887655989675e+01°)
1.86208713666287e+02	(5.17965426871315e+01dB,-8.99885038935838e+01°)
1.90546071796325e+02	(5.15965426965941e+01dB,-8.99882361370564e+01°)
1.94984459975804e+02	(5.13965427064047e+01dB,-8.99879621026410e+01°)
1.99526231496888e+02	(5.11965427181597e+01dB,-8.99876817096738e+01°)
2.04173794466953e+02	(5.09965427291246e+01dB,-8.99873947731429e+01°)
2.08929613085404e+02	(5.07965427401001e+01dB,-8.99871011642278e+01°)
2.13796208950223e+02	(5.05965427555951e+01dB,-8.99868007262925e+01°)
2.18776162394955e+02	(5.03965427666402e+01dB,-8.99864932672084e+01°)
2.23872113856834e+02	(5.01965427816886e+01dB,-8.99861786556653e+01°)
2.29086765276777e+02	(4.99965427952999e+01dB,-8.99858567315647e+01°)
2.34422881531992e+02	(4.97965428083789e+01dB,-8.99855272811572e+01°)
2.39883291901949e+02	(4.95965428252615e+01dB,-8.99851901760123e+01°)
2.45470891568503e+02	(4.93965428420229e+01dB,-8.99848452339229e+01°)
2.51188643150958e+02	(4.91965428592354e+01dB,-8.99844922006067e+01°)
2.57039578276886e+02	(4.89965428765226e+01dB,-8.99841309676662e+01°)
2.63026799189538e+02	(4.87965428957855e+01dB,-8.99837613843602e+01°)
2.69153480392691e+02	(4.85965429147593e+01dB,-8.99833830874006e+01°)
2.75422870333816e+02	(4.83965429369236e+01dB,-8.99829960528552e+01°)
2.81838293126445e+02	(4.81965429558865e+01dB,-8.99826000103244e+01°)
2.88403150312660e+02	(4.79965429801326e+01dB,-8.99821946969605e+01°)
2.95120922666638e+02	(4.77965430017232e+01dB,-8.99817799399222e+01°)
3.01995172040201e+02	(4.75965430322576e+01dB,-8.99813555556273e+01°)
3.09029543251359e+02	(4.73965430540705e+01dB,-8.99809212491513e+01°)
3.16227766016837e+02	(4.71965430813932e+01dB,-8.99804768621801e+01°)
3.23593656929628e+02	(4.69965431116623e+01dB,-8.99800220892148e+01°)
3.31131121482591e+02	(4.67965431475139e+01dB,-8.99795567253742e+01°)
3.38844156139202e+02	(4.65965431702821e+01dB,-8.99790805738190e+01°)
3.46736850452531e+02	(4.63965432031661e+01dB,-8.99785933297423e+01°)
3.54813389233575e+02	(4.61965432383333e+01dB,-8.99780946883436e+01°)
3.63078054770101e+02	(4.59965432758761e+01dB,-8.99775844306564e+01°)
3.71535229097172e+02	(4.57965433171632e+01dB,-8.99770623456688e+01°)
3.80189396320561e+02	(4.55965433559963e+01dB,-8.99765280666309e+01°)
3.89045144994280e+02	(4.53965433952697e+01dB,-8.99759813040696e+01°)
3.98107170553497e+02	(4.51965434391823e+01dB,-8.99754218551158e+01°)
4.07380277804112e+02	(4.49965434812891e+01dB,-8.99748493776004e+01°)
4.16869383470335e+02	(4.47965435273400e+01dB,-8.99742635425784e+01°)
4.26579518801592e+02	(4.45965435787928e+01dB,-8.99736640451860e+01°)
4.36515832240165e+02	(4.43965436328361e+01dB,-8.99730505889196e+01°)
4.46683592150962e+02	(4.41965436864888e+01dB,-8.99724229128276e+01°)
4.57088189614874e+02	(4.39965437527498e+01dB,-8.99717805364964e+01°)
4.67735141287197e+02	(4.37965437993993e+01dB,-8.99711232312629e+01°)
4.78630092322637e+02	(4.35965438593821e+01dB,-8.99704506256486e+01°)
4.89778819368445e+02	(4.33965439284190e+01dB,-8.99697623091840e+01°)
5.01187233627271e+02	(4.31965440034764e+01dB,-8.99690579766876e+01°)
5.12861383991364e+02	(4.29965440706617e+01dB,-8.99683372903999e+01°)
5.24807460249771e+02	(4.27965441511017e+01dB,-8.99675997413676e+01°)
5.37031796370252e+02	(4.25965442326514e+01dB,-8.99668450792066e+01°)
5.49540873857623e+02	(4.23965443075414e+01dB,-8.99660727948805e+01°)
5.62341325190348e+02	(4.21965444037526e+01dB,-8.99652825543101e+01°)
5.75439937337155e+02	(4.19965444953455e+01dB,-8.99644738567249e+01°)
5.88843655355588e+02	(4.17965445797645e+01dB,-8.99636463593269e+01°)
6.02559586074356e+02	(4.15965446784920e+01dB,-8.99627996227819e+01°)
6.16595001861481e+02	(4.13965447779384e+01dB,-8.99619331168119e+01°)
6.30957344480192e+02	(4.11965448949893e+01dB,-8.99610464400374e+01°)
6.45654229034654e+02	(4.09965450177251e+01dB,-8.99601391199987e+01°)
6.60693448007594e+02	(4.07965451293219e+01dB,-8.99592106679208e+01°)
6.76082975391980e+02	(4.05965452556233e+01dB,-8.99582605877678e+01°)
6.91830970918935e+02	(4.03965453865380e+01dB,-8.99572883208244e+01°)
7.07945784384136e+02	(4.01965455245071e+01dB,-8.99562934914510e+01°)
7.24435960074988e+02	(3.99965456690041e+01dB,-8.99552754552349e+01°)
7.41310241300916e+02	(3.97965458158528e+01dB,-8.99542336958664e+01°)
7.58577575029182e+02	(3.95965459704253e+01dB,-8.99531676819699e+01°)
7.76247116628690e+02	(3.93965461388766e+01dB,-8.99520768735673e+01°)
7.94328234724279e+02	(3.91965463132668e+01dB,-8.99509605938028e+01°)
8.12830516164097e+02	(3.89965464868236e+01dB,-8.99498183614836e+01°)
8.31763771102669e+02	(3.87965466859029e+01dB,-8.99486495000083e+01°)
8.51138038202374e+02	(3.85965468767332e+01dB,-8.99474534368677e+01°)
8.70963589956078e+02	(3.83965470871183e+01dB,-8.99462295177374e+01°)
8.91250938133743e+02	(3.81965473043703e+01dB,-8.99449770737034e+01°)
9.12010839355907e+02	(3.79965475275536e+01dB,-8.99436954621409e+01°)
9.33254300796988e+02	(3.77965477739528e+01dB,-8.99423840001251e+01°)
9.54992586021433e+02	(3.75965480214221e+01dB,-8.99410420037763e+01°)
9.77237220955808e+02	(3.73965482767180e+01dB,-8.99396687459156e+01°)
9.99999999999997e+02	(3.71965485579951e+01dB,-8.99382635012170e+01°)
1.02329299228075e+03	(3.69965488344097e+01dB,-8.99368255353314e+01°)
1.04712854805090e+03	(3.67965491466703e+01dB,-8.99353540697656e+01°)
1.07151930523760e+03	(3.65965494494925e+01dB,-8.99338483464073e+01°)
1.09647819614318e+03	(3.63965497802922e+01dB,-8.99323075469601e+01°)
1.12201845430196e+03	(3.61965501213047e+01dB,-8.99307308661814e+01°)
1.14815362149688e+03	(3.59965504999544e+01dB,-8.99291174599386e+01°)
1.17489755493953e+03	(3.57965508709538e+01dB,-8.99274664752829e+01°)
1.20226443461741e+03	(3.55965512471391e+01dB,-8.99257770614487e+01°)
1.23026877081238e+03	(3.53965516716122e+01dB,-8.99240482821220e+01°)
1.25892541179416e+03	(3.51965521108124e+01dB,-8.99222792418310e+01°)
1.28824955169313e+03	(3.49965525619859e+01dB,-8.99204690180716e+01°)
1.31825673855640e+03	(3.47965530356290e+01dB,-8.99186166298700e+01°)
1.34896288259165e+03	(3.45965535364372e+01dB,-8.99167210919931e+01°)
1.38038426460288e+03	(3.43965540659963e+01dB,-8.99147813834056e+01°)
1.41253754462275e+03	(3.41965546025759e+01dB,-8.99127965928062e+01°)
1.44543977074592e+03	(3.39965551761373e+01dB,-8.99107654878775e+01°)
1.47910838816820e+03	(3.37965557788640e+01dB,-8.99086871695017e+01°)
1.51356124843620e+03	(3.35965564006613e+01dB,-8.99065603912321e+01°)
1.54881661891248e+03	(3.33965570518747e+01dB,-8.99043841153241e+01°)
1.58489319246111e+03	(3.31965577582465e+01dB,-8.99021571479775e+01°)
1.62181009735892e+03	(3.29965584659998e+01dB,-8.98998782955011e+01°)
1.65958690743755e+03	(3.27965592218013e+01dB,-8.98975464325655e+01°)
1.69824365246174e+03	(3.25965599997948e+01dB,-8.98951602347040e+01°)
1.73780082874937e+03	(3.23965608354745e+01dB,-8.98927184896788e+01°)
1.77827941003892e+03	(3.21965617044724e+01dB,-8.98902198851784e+01°)
1.81970085860998e+03	(3.19965626114232e+01dB,-8.98876631533782e+01°)
1.86208713666286e+03	(3.17965635609233e+01dB,-8.98850467815260e+01°)
1.90546071796324e+03	(3.15965645477133e+01dB,-8.98823695561128e+01°)
1.94984459975804e+03	(3.13965655845850e+01dB,-8.98796300362127e+01°)
1.99526231496887e+03	(3.11965666796609e+01dB,-8.98768266752996e+01°)
2.04173794466952e+03	(3.09965678151259e+01dB,-8.98739580601875e+01°)
2.08929613085403e+03	(3.07965690077244e+01dB,-8.98710226334348e+01°)
2.13796208950222e+03	(3.05965702661816e+01dB,-8.98680189174498e+01°)
2.18776162394954e+03	(3.03965715695785e+01dB,-8.98649452300715e+01°)
2.23872113856833e+03	(3.01965729475043e+01dB,-8.98618000397863e+01°)
2.29086765276776e+03	(2.99965743788459e+01dB,-8.98585815826333e+01°)
2.34422881531991e+03	(2.97965758762461e+01dB,-8.98552882146058e+01°)
2.39883291901948e+03	(2.95965774619799e+01dB,-8.98519182178123e+01°)
2.45470891568502e+03	(2.93965791094813e+01dB,-8.98484697494065e+01°)
2.51188643150957e+03	(2.91965808244025e+01dB,-8.98449410438238e+01°)
2.57039578276885e+03	(2.89965826394260e+01dB,-8.98413301731903e+01°)
2.63026799189537e+03	(2.87965845291580e+01dB,-8.98376352376028e+01°)
2.69153480392690e+03	(2.85965865125784e+01dB,-8.98338543604592e+01°)
2.75422870333815e+03	(2.83965885855207e+01dB,-8.98299854658601e+01°)
2.81838293126444e+03	(2.81965907629711e+01dB,-8.98260265276064e+01°)
2.88403150312659e+03	(2.79965930397602e+01dB,-8.98219754249248e+01°)
2.95120922666637e+03	(2.77965954186656e+01dB,-8.98178301451649e+01°)
3.01995172040200e+03	(2.75965979179546e+01dB,-8.98135883486836e+01°)
3.09029543251358e+03	(2.73966005243515e+01dB,-8.98092478337147e+01°)
3.16227766016836e+03	(2.71966032619083e+01dB,-8.98048063514052e+01°)
3.23593656929627e+03	(2.69966061288661e+01dB,-8.98002615870552e+01°)
3.31131121482590e+03	(2.67966091267465e+01dB,-8.97956110563428e+01°)
3.38844156139201e+03	(2.65966122698838e+01dB,-8.97908523005499e+01°)
3.46736850452530e+03	(2.63966155615943e+01dB,-8.97859829081998e+01°)
3.54813389233574e+03	(2.61966190043440e+01dB,-8.97810002375613e+01°)
3.63078054770100e+03	(2.59966226080359e+01dB,-8.97759016672462e+01°)
3.71535229097171e+03	(2.57966263854328e+01dB,-8.97706845934674e+01°)
3.80189396320559e+03	(2.55966303391596e+01dB,-8.97653460555845e+01°)
3.89045144994279e+03	(2.53966344796650e+01dB,-8.97598834894470e+01°)
3.98107170553495e+03	(2.51966388180453e+01dB,-8.97542938746187e+01°)
4.07380277804111e+03	(2.49966433575907e+01dB,-8.97485743241923e+01°)
4.16869383470333e+03	(2.47966481153525e+01dB,-8.97427218157433e+01°)
4.26579518801590e+03	(2.45966530887542e+01dB,-8.97367332533550e+01°)
4.36515832240164e+03	(2.43966583031412e+01dB,-8.97306055068311e+01°)
4.46683592150961e+03	(2.41966637621969e+01dB,-8.97243353416148e+01°)
4.57088189614873e+03	(2.39966694779310e+01dB,-8.97179194426072e+01°)
4.67735141287196e+03	(2.37966754637773e+01dB,-8.97113544930132e+01°)
4.78630092322636e+03	(2.35966817315846e+01dB,-8.97046370470816e+01°)
4.89778819368444e+03	(2.33966882941204e+01dB,-8.96977635657742e+01°)
5.01187233627270e+03	(2.31966951677546e+01dB,-8.96907304075546e+01°)
5.12861383991362e+03	(2.29967023617907e+01dB,-8.96835338913216e+01°)
5.24807460249770e+03	(2.27967098964578e+01dB,-8.96761703140053e+01°)
5.37031796370250e+03	(2.25967177859659e+01dB,-8.96686357286083e+01°)
5.49540873857622e+03	(2.23967260475669e+01dB,-8.96609262971632e+01°)
5.62341325190346e+03	(2.21967347000865e+01dB,-8.96530379126047e+01°)
5.75439937337154e+03	(2.19967437601915e+01dB,-8.96449664556027e+01°)
5.88843655355586e+03	(2.17967532458885e+01dB,-8.96367077473726e+01°)
6.02559586074354e+03	(2.15967631775730e+01dB,-8.96282574768688e+01°)
6.16595001861479e+03	(2.13967735798725e+01dB,-8.96196112008790e+01°)
6.30957344480190e+03	(2.11967844709964e+01dB,-8.96107644589160e+01°)
6.45654229034652e+03	(2.09967958759473e+01dB,-8.96017126061126e+01°)
6.60693448007592e+03	(2.07968078171388e+01dB,-8.95924509659805e+01°)
6.76082975391978e+03	(2.05968203218437e+01dB,-8.95829747207968e+01°)
6.91830970918932e+03	(2.03968334153972e+01dB,-8.95732789219959e+01°)
7.07945784384134e+03	(2.01968471267738e+01dB,-8.95633585896121e+01°)
7.24435960074986e+03	(1.99968614843567e+01dB,-8.95532085333381e+01°)
7.41310241300913e+03	(1.97968765182817e+01dB,-8.95428235586069e+01°)
7.58577575029179e+03	(1.95968922606507e+01dB,-8.95321982388057e+01°)
7.76247116628687e+03	(1.93969087448138e+01dB,-8.95213271731345e+01°)
7.94328234724277e+03	(1.91969260058551e+01dB,-8.95102046327561e+01°)
8.12830516164094e+03	(1.89969440795587e+01dB,-8.94988250228033e+01°)
8.31763771102666e+03	(1.87969630054374e+01dB,-8.94871823985418e+01°)
8.51138038202371e+03	(1.85969828229083e+01dB,-8.94752708292019e+01°)
8.70963589956075e+03	(1.83970035755123e+01dB,-8.94630842119542e+01°)
8.91250938133740e+03	(1.81970253049160e+01dB,-8.94506162800927e+01°)
9.12010839355904e+03	(1.79970480580639e+01dB,-8.94378606884277e+01°)
9.33254300796985e+03	(1.77970718840635e+01dB,-8.94248109221899e+01°)
9.54992586021430e+03	(1.75970968322328e+01dB,-8.94114603749715e+01°)
9.77237220955805e+03	(1.73971229565705e+01dB,-8.93978022119299e+01°)
9.99999999999994e+03	(1.71971503122230e+01dB,-8.93838295412065e+01°)
1.02329299228075e+04	(1.69971789560212e+01dB,-8.93695352769375e+01°)
1.04712854805089e+04	(1.67972089497807e+01dB,-8.93549122540681e+01°)
1.07151930523760e+04	(1.65972403567329e+01dB,-8.93399530567262e+01°)
1.09647819614318e+04	(1.63972732437160e+01dB,-8.93246502029293e+01°)
1.12201845430196e+04	(1.61973076805067e+01dB,-8.93089960404311e+01°)
1.14815362149688e+04	(1.59973437396847e+01dB,-8.92929827067390e+01°)
1.17489755493952e+04	(1.57973814978932e+01dB,-8.92766022652126e+01°)
1.20226443461741e+04	(1.55974210355043e+01dB,-8.92598465790060e+01°)
1.23026877081237e+04	(1.53974624355676e+01dB,-8.92427073618010e+01°)
1.25892541179416e+04	(1.51975057866582e+01dB,-8.92251761858467e+01°)
1.28824955169313e+04	(1.49975511798812e+01dB,-8.92072443896180e+01°)
1.31825673855640e+04	(1.47975987120635e+01dB,-8.91889032115503e+01°)
1.34896288259164e+04	(1.45976484837842e+01dB,-8.91701437402144e+01°)
1.38038426460288e+04	(1.43977006001113e+01dB,-8.91509568511101e+01°)
1.41253754462274e+04	(1.41977551720777e+01dB,-8.91313332642918e+01°)
1.44543977074592e+04	(1.39978123151920e+01dB,-8.91112635437386e+01°)
1.47910838816820e+04	(1.37978721501213e+01dB,-8.90907380982334e+01°)
1.51356124843620e+04	(1.35979348042456e+01dB,-8.90697471321485e+01°)
1.54881661891247e+04	(1.33980004095285e+01dB,-8.90482807346391e+01°)
1.58489319246110e+04	(1.31980691058741e+01dB,-8.90263287603442e+01°)
1.62181009735892e+04	(1.29981410381289e+01dB,-8.90038809652690e+01°)
1.65958690743755e+04	(1.27982163590032e+01dB,-8.89809268812748e+01°)
1.69824365246173e+04	(1.25982952278528e+01dB,-8.89574559118948e+01°)
1.73780082874936e+04	(1.23983778120703e+01dB,-8.89334573263968e+01°)
1.77827941003891e+04	(1.21984642861222e+01dB,-8.89089201660866e+01°)
1.81970085860997e+04	(1.19985548331157e+01dB,-8.88838333445445e+01°)
1.86208713666285e+04	(1.17986496451166e+01dB,-8.88581856581021e+01°)
1.90546071796323e+04	(1.15987489224947e+01dB,-8.88319656971468e+01°)
1.94984459975803e+04	(1.13988528760459e+01dB,-8.88051619620964e+01°)
1.99526231496887e+04	(1.11989617252656e+01dB,-8.87777627656934e+01°)
2.04173794466951e+04	(1.09990757005032e+01dB,-8.87497562971168e+01°)
2.08929613085402e+04	(1.07991950432996e+01dB,-8.87211306569901e+01°)
2.13796208950222e+04	(1.05993200060649e+01dB,-8.86918737843222e+01°)
2.18776162394954e+04	(1.03994508530069e+01dB,-8.86619735419878e+01°)
2.23872113856832e+04	(1.01995878611907e+01dB,-8.86314176556450e+01°)
2.29086765276776e+04	(9.99973132037189e+00dB,-8.86001937933626e+01°)
2.34422881531990e+04	(9.79988153365331e+00dB,-8.85682895409863e+01°)
2.39883291901947e+04	(9.60003881913764e+00dB,-8.85356924138137e+01°)
2.45470891568501e+04	(9.40020350918943e+00dB,-8.85023898709320e+01°)
2.51188643150956e+04	(9.20037595152957e+00dB,-8.84683693386944e+01°)
2.57039578276884e+04	(9.00055651109887e+00dB,-8.84336182642842e+01°)
2.63026799189536e+04	(8.80074556911826e+00dB,-8.83981240673533e+01°)
2.69153480392690e+04	(8.60094352496348e+00dB,-8.83618741875072e+01°)
2.75422870333815e+04	(8.40115079688993e+00dB,-8.83248561270809e+01°)
2.81838293126443e+04	(8.20136782230706e+00dB,-8.82870574915207e+01°)
2.88403150312658e+04	(8.00159505945889e+00dB,-8.82484659387978e+01°)
2.95120922666636e+04	(7.80183298766291e+00dB,-8.82090693040524e+01°)
3.01995172040199e+04	(7.60208210907560e+00dB,-8.81688555778703e+01°)
3.09029543251357e+04	(7.40234294886382e+00dB,-8.81278129515436e+01°)
3.16227766016835e+04	(7.20261605726133e+00dB,-8.80859298780927e+01°)
3.23593656929626e+04	(7.00290200949268e+00dB,-8.80431950860438e+01°)
3.31131121482588e+04	(6.80320140798576e+00dB,-8.79995976543501e+01°)
3.38844156139200e+04	(6.60351488333841e+00dB,-8.79551270271274e+01°)
3.46736850452529e+04	(6.40384309540866e+00dB,-8.79097731241873e+01°)
3.54813389233573e+04	(6.20418673459748e+00dB,-8.78635263536676e+01°)
3.63078054770098e+04	(6.00454652376057e+00dB,-8.78163777057934e+01°)
3.71535229097170e+04	(5.80492321894374e+00dB,-8.77683187882948e+01°)
3.80189396320558e+04	(5.60531761154317e+00dB,-8.77193419432249e+01°)
3.89045144994277e+04	(5.40573052972411e+00dB,-8.76694403248232e+01°)
3.98107170553494e+04	(5.20616283983896e+00dB,-8.76186079672519e+01°)
4.07380277804109e+04	(5.00661544845650e+00dB,-8.75668398932445e+01°)
4.16869383470332e+04	(4.80708930413481e+00dB,-8.75141322220555e+01°)
4.26579518801589e+04	(4.60758539904867e+00dB,-8.74604822882430e+01°)
4.36515832240162e+04	(4.40810477168993e+00dB,-8.74058887523850e+01°)
4.46683592150959e+04	(4.20864850789159e+00dB,-8.73503517481793e+01°)
4.57088189614871e+04	(4.00921774368646e+00dB,-8.72938730019859e+01°)
4.67735141287194e+04	(3.80981366756042e+00dB,-8.72364560235939e+01°)
4.78630092322634e+04	(3.61043752245592e+00dB,-8.71781062314067e+01°)
4.89778819368442e+04	(3.41109060851731e+00dB,-8.71188311800476e+01°)
5.01187233627268e+04	(3.21177428544405e+00dB,-8.70586407088486e+01°)
5.12861383991360e+04	(3.01248997533739e+00dB,-8.69975471962289e+01°)
5.24807460249768e+04	(2.81323916541886e+00dB,-8.69355657377997e+01°)
5.37031796370248e+04	(2.61402341082126e+00dB,-8.68727144363122e+01°)
5.49540873857620e+04	(2.41484433798288e+00dB,-8.68090146439852e+01°)
5.62341325190344e+04	(2.21570364754589e+00dB,-8.67444912377751e+01°)
5.75439937337152e+04	(2.01660311790974e+00dB,-8.66791729433900e+01°)
5.88843655355584e+04	(1.81754460860448e+00dB,-8.66130926519878e+01°)
6.02559586074353e+04	(1.61853006426892e+00dB,-8.65462877869209e+01°)
6.16595001861477e+04	(1.41956151838237e+00dB,-8.64788006839073e+01°)
6.30957344480188e+04	(1.22064109746966e+00dB,-8.64106789880099e+01°)
6.45654229034650e+04	(1.02177102554676e+00dB,-8.63419761158681e+01°)
6.60693448007590e+04	(8.22953628821541e-01dB,-8.62727517312461e+01°)
6.76082975391976e+04	(6.24191340750760e-01dB,-8.62030722472419e+01°)
6.91830970918930e+04	(4.25486707389344e-01dB,-8.61330113987072e+01°)
