Freq.	(V(V)/V(I))*-1000
1.00000000000000e+01	(-7.23176252383644e+01dB,5.12945111185848e+01°)
1.00925288607668e+01	(-7.22751889022779e+01dB,5.10753851980453e+01°)
1.01859138805412e+01	(-7.22331096858796e+01dB,5.08565630893186e+01°)
1.02801629812647e+01	(-7.21913878392177e+01dB,5.06380701637976e+01°)
1.03752841581801e+01	(-7.21500231629399e+01dB,5.04199312599575e+01°)
1.04712854805090e+01	(-7.21090157026466e+01dB,5.02021753843792e+01°)
1.05681750921366e+01	(-7.20683653126203e+01dB,4.99848241735048e+01°)
1.06659612123026e+01	(-7.20280718497073e+01dB,4.97679075631543e+01°)
1.07646521362984e+01	(-7.19881348481140e+01dB,4.95514498404753e+01°)
1.08642562361707e+01	(-7.19485543225796e+01dB,4.93354769925638e+01°)
1.09647819614319e+01	(-7.19093293197273e+01dB,4.91200172742110e+01°)
1.10662378397767e+01	(-7.18704600664773e+01dB,4.89050942685705e+01°)
1.11686324778056e+01	(-7.18319454388222e+01dB,4.86907345051940e+01°)
1.12719745617551e+01	(-7.17937852131607e+01dB,4.84769651689343e+01°)
1.13762728582343e+01	(-7.17559785035279e+01dB,4.82638131630454e+01°)
1.14815362149688e+01	(-7.17185246456361e+01dB,4.80513012772692e+01°)
1.15877735615513e+01	(-7.16814227186541e+01dB,4.78394584386821e+01°)
1.16949939101987e+01	(-7.16446722085658e+01dB,4.76283092409587e+01°)
1.18032063565173e+01	(-7.16082717783484e+01dB,4.74178780296944e+01°)
1.19124200802738e+01	(-7.15722206765182e+01dB,4.72081947867412e+01°)
1.20226443461742e+01	(-7.15365178439850e+01dB,4.69992805146008e+01°)
1.21338885046498e+01	(-7.15011621615940e+01dB,4.67911645663986e+01°)
1.22461619926505e+01	(-7.14661523121837e+01dB,4.65838693247354e+01°)
1.23594743344451e+01	(-7.14314872156894e+01dB,4.63774252411383e+01°)
1.24738351424295e+01	(-7.13971653876692e+01dB,4.61718498672320e+01°)
1.25892541179417e+01	(-7.13631858437704e+01dB,4.59671745117490e+01°)
1.27057410520854e+01	(-7.13295466699618e+01dB,4.57634231495281e+01°)
1.28233058265602e+01	(-7.12962465456597e+01dB,4.55606172817958e+01°)
1.29419584144999e+01	(-7.12632840874606e+01dB,4.53587866931588e+01°)
1.30617088813185e+01	(-7.12306576349979e+01dB,4.51579507360170e+01°)
1.31825673855641e+01	(-7.11983651506909e+01dB,4.49581394170307e+01°)
1.33045441797810e+01	(-7.11664053531886e+01dB,4.47593699960773e+01°)
1.34276496113787e+01	(-7.11347765656367e+01dB,4.45616736498939e+01°)
1.35518941235104e+01	(-7.11034765762315e+01dB,4.43650701108685e+01°)
1.36772882559585e+01	(-7.10725034092203e+01dB,4.41695836453329e+01°)
1.38038426460289e+01	(-7.10418558445729e+01dB,4.39752373676643e+01°)
1.39315680294531e+01	(-7.10115313151115e+01dB,4.37820563240747e+01°)
1.40604752412992e+01	(-7.09815275172849e+01dB,4.35900624129795e+01°)
1.41905752168910e+01	(-7.09518430860494e+01dB,4.33992786637435e+01°)
1.43218789927355e+01	(-7.09224755167029e+01dB,4.32097267383128e+01°)
1.44543977074593e+01	(-7.08934225239819e+01dB,4.30214310048782e+01°)
1.45881426027535e+01	(-7.08646818248074e+01dB,4.28344116933337e+01°)
1.47231250243272e+01	(-7.08362511405512e+01dB,4.26486919199114e+01°)
1.48593564228701e+01	(-7.08081285098418e+01dB,4.24642916291533e+01°)
1.49968483550238e+01	(-7.07803110310322e+01dB,4.22812344353568e+01°)
1.51356124843621e+01	(-7.07527965357861e+01dB,4.20995410221072e+01°)
1.52756605823808e+01	(-7.07255827721918e+01dB,4.19192326336929e+01°)
1.54170045294957e+01	(-7.06986668400469e+01dB,4.17403278134680e+01°)
1.55596563160508e+01	(-7.06720464842779e+01dB,4.15628499753639e+01°)
1.57036280433356e+01	(-7.06457188444272e+01dB,4.13868179266677e+01°)
1.58489319246112e+01	(-7.06196816598782e+01dB,4.12122513275050e+01°)
1.59955802861468e+01	(-7.05939315268290e+01dB,4.10391681086109e+01°)
1.61435855682649e+01	(-7.05684666307324e+01dB,4.08675921293479e+01°)
1.62929603263973e+01	(-7.05432838489691e+01dB,4.06975371299559e+01°)
1.64437172321494e+01	(-7.05183803109946e+01dB,4.05290274628535e+01°)
1.65958690743757e+01	(-7.04937531540538e+01dB,4.03620778277039e+01°)
1.67494287602645e+01	(-7.04693995283381e+01dB,4.01967067801753e+01°)
1.69044093164327e+01	(-7.04453171043428e+01dB,4.00329327097959e+01°)
1.70608238900313e+01	(-7.04215020442080e+01dB,3.98707743988324e+01°)
1.72186857498602e+01	(-7.03979524488946e+01dB,3.97102500260246e+01°)
1.73780082874939e+01	(-7.03746646982698e+01dB,3.95513711878968e+01°)
1.75388050184177e+01	(-7.03516359111153e+01dB,3.93941632540725e+01°)
1.77010895831743e+01	(-7.03288629784673e+01dB,3.92386365998051e+01°)
1.78648757485206e+01	(-7.03063430211143e+01dB,3.90848084356298e+01°)
1.80301774085958e+01	(-7.02840728776450e+01dB,3.89326954240509e+01°)
1.81970085860999e+01	(-7.02620495233099e+01dB,3.87823129536657e+01°)
1.83653834334836e+01	(-7.02402699228258e+01dB,3.86336767613898e+01°)
1.85353162341482e+01	(-7.02187308782156e+01dB,3.84868020188175e+01°)
1.87068214036581e+01	(-7.01974290195763e+01dB,3.83417032414440e+01°)
1.88799134909631e+01	(-7.01763615414727e+01dB,3.81983971539857e+01°)
1.90546071796326e+01	(-7.01555248035606e+01dB,3.80568938290620e+01°)
1.92309172891017e+01	(-7.01349161873818e+01dB,3.79172104823007e+01°)
1.94088587759279e+01	(-7.01145317820675e+01dB,3.77793591738756e+01°)
1.95884467350600e+01	(-7.00943687821739e+01dB,3.76433556177430e+01°)
1.97696964011187e+01	(-7.00744236842152e+01dB,3.75092107816224e+01°)
1.99526231496889e+01	(-7.00546936893783e+01dB,3.73769365997483e+01°)
2.01372424986240e+01	(-7.00351750329662e+01dB,3.72465489066353e+01°)
2.03235701093624e+01	(-7.00158643915959e+01dB,3.71180559922692e+01°)
2.05116217882558e+01	(-6.99967584639156e+01dB,3.69914740605247e+01°)
2.07014134879106e+01	(-6.99778545443988e+01dB,3.68668112743581e+01°)
2.08929613085406e+01	(-6.99591485588761e+01dB,3.67440844101574e+01°)
2.10862814993331e+01	(-6.99406373370889e+01dB,3.66232996491964e+01°)
2.12813904598273e+01	(-6.99223175617782e+01dB,3.65044689267039e+01°)
2.14783047413055e+01	(-6.99041859104062e+01dB,3.63876030190171e+01°)
2.16770410481971e+01	(-6.98862390653987e+01dB,3.62727156665817e+01°)
2.18776162394957e+01	(-6.98684736736735e+01dB,3.61598127638906e+01°)
2.20800473301892e+01	(-6.98508858346917e+01dB,3.60489051875493e+01°)
2.22843514927032e+01	(-6.98334728945196e+01dB,3.59400024049841e+01°)
2.24905460583580e+01	(-6.98162309395629e+01dB,3.58331158658981e+01°)
2.26986485188384e+01	(-6.97991567038892e+01dB,3.57282551627939e+01°)
2.29086765276779e+01	(-6.97822469258722e+01dB,3.56254260924071e+01°)
2.31206479017561e+01	(-6.97654979900329e+01dB,3.55246392358409e+01°)
2.33345806228102e+01	(-6.97489064964522e+01dB,3.54259037182056e+01°)
2.35504928389603e+01	(-6.97324691042825e+01dB,3.53292252600867e+01°)
2.37684028662490e+01	(-6.97161823127850e+01dB,3.52346169008273e+01°)
2.39883291901951e+01	(-6.97000426008370e+01dB,3.51420787235897e+01°)
2.42102904673620e+01	(-6.96840468558404e+01dB,3.50516253856742e+01°)
2.44343055269399e+01	(-6.96681914970637e+01dB,3.49632622225158e+01°)
2.46603933723436e+01	(-6.96524726657525e+01dB,3.48769922404730e+01°)
2.48885731828241e+01	(-6.96368880978614e+01dB,3.47928278717910e+01°)
2.51188643150960e+01	(-6.96214329756874e+01dB,3.47107749016610e+01°)
2.53512863049793e+01	(-6.96061045575068e+01dB,3.46308372556481e+01°)
2.55858588690567e+01	(-6.95908988433616e+01dB,3.45530231043983e+01°)
2.58226019063462e+01	(-6.95758134771773e+01dB,3.44773367716748e+01°)
2.60615354999892e+01	(-6.95608438970943e+01dB,3.44037854988891e+01°)
2.63026799189541e+01	(-6.95459870394929e+01dB,3.43323742515295e+01°)
2.65460556197557e+01	(-6.95312400307690e+01dB,3.42631098494282e+01°)
2.67916832481906e+01	(-6.95165988054507e+01dB,3.41959951959053e+01°)
2.70395836410887e+01	(-6.95020599255600e+01dB,3.41310376111736e+01°)
2.72897778280807e+01	(-6.94876203965426e+01dB,3.40682407592659e+01°)
2.75422870333820e+01	(-6.94732761133347e+01dB,3.40076096177952e+01°)
2.77971326775932e+01	(-6.94590243386373e+01dB,3.39491493065432e+01°)
2.80543363795174e+01	(-6.94448611187552e+01dB,3.38928622376376e+01°)
2.83139199579941e+01	(-6.94307832515931e+01dB,3.38387533181086e+01°)
2.85759054337498e+01	(-6.94167873578767e+01dB,3.37868285976722e+01°)
2.88403150312664e+01	(-6.94028698855058e+01dB,3.37370889936021e+01°)
2.91071711806664e+01	(-6.93890276939617e+01dB,3.36895386438644e+01°)
2.93764965196156e+01	(-6.93752568216158e+01dB,3.36441833222775e+01°)
2.96483138952438e+01	(-6.93615543776555e+01dB,3.36010225650970e+01°)
2.99226463660822e+01	(-6.93479161809005e+01dB,3.35600622394007e+01°)
3.01995172040205e+01	(-6.93343400708467e+01dB,3.35213039836880e+01°)
3.04789498962802e+01	(-6.93208214595283e+01dB,3.34847508498686e+01°)
3.07609681474074e+01	(-6.93073574871388e+01dB,3.34504053416090e+01°)
3.10455958812839e+01	(-6.92939441098367e+01dB,3.34182707990772e+01°)
3.13328572431562e+01	(-6.92805789788940e+01dB,3.33883471218477e+01°)
3.16227766016842e+01	(-6.92672576793075e+01dB,3.33606373560911e+01°)
3.19153785510080e+01	(-6.92539778145443e+01dB,3.33351461485861e+01°)
3.22106879128347e+01	(-6.92407348904854e+01dB,3.33118719510390e+01°)
3.25087297385438e+01	(-6.92275262390729e+01dB,3.32908176331188e+01°)
3.28095293113123e+01	(-6.92143477684449e+01dB,3.32719832453584e+01°)
3.31131121482595e+01	(-6.92011969540998e+01dB,3.32553737826038e+01°)
3.34195040026118e+01	(-6.91880693993108e+01dB,3.32409845008369e+01°)
3.37287308658873e+01	(-6.91749629904449e+01dB,3.32288226085166e+01°)
3.40408189701005e+01	(-6.91618733057984e+01dB,3.32188857262437e+01°)
3.43557947899879e+01	(-6.91487970833301e+01dB,3.32111729780761e+01°)
3.46736850452536e+01	(-6.91357310791975e+01dB,3.32056888361269e+01°)
3.49945167028362e+01	(-6.91226717101335e+01dB,3.32024324996421e+01°)
3.53183169791962e+01	(-6.91096158343176e+01dB,3.32014009225780e+01°)
3.56451133426249e+01	(-6.90965602193771e+01dB,3.32025993234726e+01°)
3.59749335155747e+01	(-6.90835005463644e+01dB,3.32060217966500e+01°)
3.63078054770106e+01	(-6.90704341903583e+01dB,3.32116730935654e+01°)
3.66437574647838e+01	(-6.90573575610385e+01dB,3.32195491964049e+01°)
3.69828179780271e+01	(-6.90442676313079e+01dB,3.32296536213094e+01°)
3.73250157795726e+01	(-6.90311602420107e+01dB,3.32419834351118e+01°)
3.76703798983914e+01	(-6.90180323333822e+01dB,3.32565368269960e+01°)
3.80189396320566e+01	(-6.90048810992682e+01dB,3.32733150504874e+01°)
3.83707245492284e+01	(-6.89917023195650e+01dB,3.32923135260229e+01°)
3.87257644921623e+01	(-6.89784926012212e+01dB,3.33135352410704e+01°)
3.90840895792408e+01	(-6.89652487744569e+01dB,3.33369758281621e+01°)
3.94457302075284e+01	(-6.89519675884717e+01dB,3.33626350394099e+01°)
3.98107170553503e+01	(-6.89386453590964e+01dB,3.33905094664015e+01°)
4.01790810848946e+01	(-6.89252788267001e+01dB,3.34205981397662e+01°)
4.05508535448390e+01	(-6.89118645152189e+01dB,3.34529010272769e+01°)
4.09260659730017e+01	(-6.88983989764805e+01dB,3.34874126403270e+01°)
4.13047501990167e+01	(-6.88848793064181e+01dB,3.35241330735998e+01°)
4.16869383470342e+01	(-6.88713014184275e+01dB,3.35630580610995e+01°)
4.20726628384450e+01	(-6.88576617980322e+01dB,3.36041876089339e+01°)
4.24619563946319e+01	(-6.88439578846435e+01dB,3.36475146006446e+01°)
4.28548520397446e+01	(-6.88301850583215e+01dB,3.36930370879712e+01°)
4.32513831035015e+01	(-6.88163407502435e+01dB,3.37407549665724e+01°)
4.36515832240173e+01	(-6.88024213422763e+01dB,3.37906614639657e+01°)
4.40554863506560e+01	(-6.87884232066458e+01dB,3.38427545116493e+01°)
4.44631267469116e+01	(-6.87743434546709e+01dB,3.38970312796230e+01°)
4.48745389933139e+01	(-6.87601776806854e+01dB,3.39534840881232e+01°)
4.52897579903628e+01	(-6.87459237778242e+01dB,3.40121141081004e+01°)
4.57088189614882e+01	(-6.87315770538435e+01dB,3.40729127580068e+01°)
4.61317574560387e+01	(-6.87171349359131e+01dB,3.41358782372647e+01°)
4.65586093522966e+01	(-6.87025938384787e+01dB,3.42010054214749e+01°)
4.69894108605223e+01	(-6.86879500943135e+01dB,3.42682887073662e+01°)
4.74241985260252e+01	(-6.86731997781025e+01dB,3.43377218390783e+01°)
4.78630092322646e+01	(-6.86583404841862e+01dB,3.44093018144090e+01°)
4.83058802039780e+01	(-6.86433683099023e+01dB,3.44830217389194e+01°)
4.87528490103394e+01	(-6.86282795130716e+01dB,3.45588772946534e+01°)
4.92039535681459e+01	(-6.86130711663829e+01dB,3.46368610710620e+01°)
4.96592321450344e+01	(-6.85977392324186e+01dB,3.47169676180782e+01°)
5.01187233627281e+01	(-6.85822808739503e+01dB,3.47991921099164e+01°)
5.05824662003123e+01	(-6.85666928509124e+01dB,3.48835276851377e+01°)
5.10504999975415e+01	(-6.85509703117726e+01dB,3.49699640135301e+01°)
5.15228644581765e+01	(-6.85351115900258e+01dB,3.50585006303030e+01°)
5.19995996533525e+01	(-6.85191122640545e+01dB,3.51491252399761e+01°)
5.24807460249782e+01	(-6.85029691051967e+01dB,3.52418322057629e+01°)
5.29663443891667e+01	(-6.84866782489281e+01dB,3.53366123765720e+01°)
5.34564359396981e+01	(-6.84702373327031e+01dB,3.54334615910487e+01°)
5.39510622515137e+01	(-6.84536418233839e+01dB,3.55323693733103e+01°)
5.44502652842431e+01	(-6.84368886047656e+01dB,3.56333276972945e+01°)
5.49540873857634e+01	(-6.84199748571250e+01dB,3.57363275391460e+01°)
5.54625712957921e+01	(-6.84028966258218e+01dB,3.58413629540584e+01°)
5.59757601495120e+01	(-6.83856501432617e+01dB,3.59484216936407e+01°)
5.64936974812313e+01	(-6.83682328146245e+01dB,3.60574961250893e+01°)
5.70164272280758e+01	(-6.83506403137025e+01dB,3.61685747936059e+01°)
5.75439937337167e+01	(-6.83328704654233e+01dB,3.62816520346306e+01°)
5.80764417521323e+01	(-6.83149189161636e+01dB,3.63967146491866e+01°)
5.86138164514039e+01	(-6.82967824930712e+01dB,3.65137539561347e+01°)
5.91561634175485e+01	(-6.82784580316912e+01dB,3.66327579802579e+01°)
5.97035286583848e+01	(-6.82599417747779e+01dB,3.67537168488188e+01°)
6.02559586074369e+01	(-6.82412306728618e+01dB,3.68766199625629e+01°)
6.08135001278729e+01	(-6.82223218781886e+01dB,3.70014565774813e+01°)
6.13762005164806e+01	(-6.82032108746513e+01dB,3.71282141000801e+01°)
6.19441075076793e+01	(-6.81838948091156e+01dB,3.72568808554983e+01°)
6.25172692775698e+01	(-6.81643708262571e+01dB,3.73874446303334e+01°)
6.30957344480205e+01	(-6.81446353854808e+01dB,3.75198941232098e+01°)
6.36795520907928e+01	(-6.81246847877477e+01dB,3.76542158759261e+01°)
6.42687717317032e+01	(-6.81045160061232e+01dB,3.77903955663593e+01°)
6.48634433548251e+01	(-6.80841264922254e+01dB,3.79284249629034e+01°)
6.54636174067288e+01	(-6.80635119324185e+01dB,3.80682858763697e+01°)
6.60693448007609e+01	(-6.80426695744460e+01dB,3.82099655832848e+01°)
6.66806769213635e+01	(-6.80215960477457e+01dB,3.83534505728590e+01°)
6.72976656284331e+01	(-6.80002879758508e+01dB,3.84987260188896e+01°)
6.79203632617198e+01	(-6.79787426844183e+01dB,3.86457793840659e+01°)
6.85488226452675e+01	(-6.79569570297712e+01dB,3.87945936082238e+01°)
6.91830970918950e+01	(-6.79349275581668e+01dB,3.89451554155154e+01°)
6.98232404077185e+01	(-6.79126511086396e+01dB,3.90974480005899e+01°)
7.04693068967161e+01	(-6.78901245782005e+01dB,3.92514546386553e+01°)
7.11213513653343e+01	(-6.78673454696817e+01dB,3.94071626275195e+01°)
7.17794291271376e+01	(-6.78443100731519e+01dB,3.95645537042933e+01°)
7.24435960075005e+01	(-6.78210158558689e+01dB,3.97236118831260e+01°)
7.31139083483432e+01	(-6.77974589158057e+01dB,3.98843169950248e+01°)
7.37904230129116e+01	(-6.77736374727371e+01dB,4.00466573346929e+01°)
7.44731973906004e+01	(-6.77495483978638e+01dB,4.02106137055010e+01°)
7.51622894018221e+01	(-6.77251876693353e+01dB,4.03761652535320e+01°)
7.58577575029200e+01	(-6.77005535301362e+01dB,4.05432968370629e+01°)
7.65596606911272e+01	(-6.76756431389321e+01dB,4.07119924804827e+01°)
7.72680585095719e+01	(-6.76504532743289e+01dB,4.08822295862719e+01°)
7.79830110523275e+01	(-6.76249807715968e+01dB,4.10539897775196e+01°)
7.87045789695115e+01	(-6.75992238334631e+01dB,4.12272565145764e+01°)
7.94328234724298e+01	(-6.75731789642613e+01dB,4.14020062893015e+01°)
8.01678063387696e+01	(-6.75468439451227e+01dB,4.15782250027311e+01°)
8.09095899178400e+01	(-6.75202159254588e+01dB,4.17558881123145e+01°)
8.16582371358610e+01	(-6.74932927463675e+01dB,4.19349790411795e+01°)
8.24138115013020e+01	(-6.74660711179368e+01dB,4.21154735328462e+01°)
8.31763771102689e+01	(-6.74385490630880e+01dB,4.22973536515750e+01°)
8.39459986519416e+01	(-6.74107239543500e+01dB,4.24805976393552e+01°)
8.47227414140615e+01	(-6.73825932231447e+01dB,4.26651835056762e+01°)
8.55066712884702e+01	(-6.73541553070563e+01dB,4.28510932641172e+01°)
8.62978547766990e+01	(-6.73254066376676e+01dB,4.30382998331737e+01°)
8.70963589956100e+01	(-6.72963455178822e+01dB,4.32267861339189e+01°)
8.79022516830904e+01	(-6.72669697934673e+01dB,4.34165269045327e+01°)
8.87156012037981e+01	(-6.72372769511884e+01dB,4.36075004363320e+01°)
8.95364765549614e+01	(-6.72072648343560e+01dB,4.37996823680741e+01°)
9.03649473722322e+01	(-6.71769325031012e+01dB,4.39930569074259e+01°)
9.12010839355931e+01	(-6.71462767618365e+01dB,4.41875947972858e+01°)
9.20449571753192e+01	(-6.71152955625477e+01dB,4.43832730471883e+01°)
9.28966386779958e+01	(-6.70839868905180e+01dB,4.45800673615925e+01°)
9.37562006925902e+01	(-6.70523498247092e+01dB,4.47779593190901e+01°)
9.46237161365815e+01	(-6.70203816093054e+01dB,4.49769198281811e+01°)
9.54992586021458e+01	(-6.69880808478523e+01dB,4.51769272388359e+01°)
9.63829023623993e+01	(-6.69554458998983e+01dB,4.53779572432224e+01°)
9.72747223776988e+01	(-6.69224743902423e+01dB,4.55799817790707e+01°)
9.81747943020007e+01	(-6.68891658876344e+01dB,4.57829825652933e+01°)
9.90831944892791e+01	(-6.68555181995283e+01dB,4.59869317391923e+01°)
1.00000000000002e+02	(-6.68215300452159e+01dB,4.61918060527010e+01°)
1.00925288607671e+02	(-6.67871993069506e+01dB,4.63975749472222e+01°)
1.01859138805414e+02	(-6.67525255658312e+01dB,4.66042211447276e+01°)
1.02801629812650e+02	(-6.67175070696918e+01dB,4.68117141665185e+01°)
1.03752841581804e+02	(-6.66821422171912e+01dB,4.70200280315837e+01°)
1.04712854805092e+02	(-6.66464308035301e+01dB,4.72291431615046e+01°)
1.05681750921368e+02	(-6.66103707310819e+01dB,4.74390272423385e+01°)
1.06659612123028e+02	(-6.65739615351225e+01dB,4.76496587148149e+01°)
1.07646521362986e+02	(-6.65372018817289e+01dB,4.78610097243299e+01°)
1.08642562361709e+02	(-6.65000911645106e+01dB,4.80730559886155e+01°)
1.09647819614321e+02	(-6.64626282785993e+01dB,4.82857707573843e+01°)
1.10662378397769e+02	(-6.64248127927958e+01dB,4.84991298957676e+01°)
1.11686324778059e+02	(-6.63866432781176e+01dB,4.87131028078014e+01°)
1.12719745617554e+02	(-6.63481199508367e+01dB,4.89276697646367e+01°)
1.13762728582346e+02	(-6.63092412981505e+01dB,4.91427970903379e+01°)
1.14815362149691e+02	(-6.62700073779596e+01dB,4.93584647230017e+01°)
1.15877735615516e+02	(-6.62304177395646e+01dB,4.95746457722799e+01°)
1.16949939101990e+02	(-6.61904717424317e+01dB,4.97913123837794e+01°)
1.18032063565176e+02	(-6.61501691432268e+01dB,5.00084387877558e+01°)
1.19124200802741e+02	(-6.61095097957272e+01dB,5.02260003825691e+01°)
1.20226443461744e+02	(-6.60684932003777e+01dB,5.04439686822835e+01°)
1.21338885046501e+02	(-6.60271197215696e+01dB,5.06623212058902e+01°)
1.22461619926508e+02	(-6.59853887205030e+01dB,5.08810277308479e+01°)
1.23594743344454e+02	(-6.59433004997916e+01dB,5.11000651229006e+01°)
1.24738351424298e+02	(-6.59008547733868e+01dB,5.13194040056680e+01°)
1.25892541179420e+02	(-6.58580523346990e+01dB,5.15390249289139e+01°)
1.27057410520857e+02	(-6.58148928955957e+01dB,5.17588966048829e+01°)
1.28233058265606e+02	(-6.57713767090990e+01dB,5.19789949627061e+01°)
1.29419584145002e+02	(-6.57275045888701e+01dB,5.21992978396007e+01°)
1.30617088813188e+02	(-6.56832760542798e+01dB,5.24197735289446e+01°)
1.31825673855644e+02	(-6.56386924223466e+01dB,5.26404023723976e+01°)
1.33045441797813e+02	(-6.55937536321371e+01dB,5.28611553402545e+01°)
1.34276496113790e+02	(-6.55484604650950e+01dB,5.30820093244148e+01°)
1.35518941235107e+02	(-6.55028135750700e+01dB,5.33029391688583e+01°)
1.36772882559589e+02	(-6.54568135187922e+01dB,5.35239191484749e+01°)
